! 9/21/2018 6:13:55 PM
! E:\DATAF.S2P
! CHANNEL.1
! TR.MEASUREMENT
! CORRECTED.DATA
# GHZ S RI R 50.0
! FREQ.GHZ         S11RE         S11IM         S21RE         S21IM         S12RE         S12IM         S22RE         S22IM         
!; PortSelection: Port_12
   0.005500000     0.0025184    0.0019676     0.9864477   -0.1451303     0.9864501   -0.1443691     0.0022438    0.0020085 
   0.005999375     0.0026359    0.0020701     0.9836265   -0.1581731     0.9843925   -0.1572422     0.0025138    0.0019574 
   0.006498750     0.0028328    0.0020949     0.9816198   -0.1711564     0.9821106   -0.1700488     0.0026434    0.0019252 
   0.006998125     0.0028612    0.0021412     0.9790505   -0.1839611     0.9797845   -0.1829250     0.0028699    0.0021773 
   0.007497500     0.0030265    0.0022958     0.9765580   -0.1966601     0.9772648   -0.1957603     0.0028934    0.0022407 
   0.007996875     0.0032134    0.0022179     0.9738781   -0.2093266     0.9745755   -0.2083720     0.0030296    0.0021342 
   0.008496250     0.0033261    0.0022081     0.9712763   -0.2218791     0.9717248   -0.2212148     0.0032031    0.0021789 
   0.008995625     0.0035090    0.0021735     0.9679457   -0.2347409     0.9687839   -0.2339366     0.0032760    0.0021588 
   0.009495000     0.0036013    0.0022286     0.9649123   -0.2474297     0.9655500   -0.2467961     0.0034019    0.0021889 
   0.009994375     0.0037542    0.0022576     0.9615124   -0.2599402     0.9623234   -0.2592978     0.0035094    0.0021852 
   0.010493750     0.0039973    0.0023234     0.9595963   -0.2714764     0.9596210   -0.2716043     0.0034738    0.0022364 
   0.010993125     0.0038602    0.0021091     0.9560717   -0.2840810     0.9559891   -0.2840908     0.0036760    0.0020963 
   0.011492500     0.0038986    0.0021867     0.9523519   -0.2962379     0.9523559   -0.2965030     0.0039740    0.0021522 
   0.011991875     0.0042378    0.0021373     0.9483719   -0.3085605     0.9481614   -0.3087248     0.0039767    0.0022069 
   0.012491250     0.0043601    0.0020840     0.9443396   -0.3208523     0.9440867   -0.3211358     0.0039954    0.0021554 
   0.012990625     0.0043453    0.0022239     0.9399924   -0.3330006     0.9398432   -0.3332856     0.0041085    0.0020893 
   0.013490000     0.0046021    0.0020838     0.9353707   -0.3452051     0.9351047   -0.3454677     0.0041683    0.0020094 
   0.013989375     0.0046317    0.0020899     0.9306921   -0.3574657     0.9306642   -0.3575116     0.0042395    0.0021198 
   0.014488750     0.0045836    0.0020993     0.9259827   -0.3694106     0.9258647   -0.3693077     0.0044423    0.0021009 
   0.014988125     0.0048508    0.0020510     0.9209431   -0.3815743     0.9209626   -0.3814438     0.0044878    0.0020828 
   0.015487500     0.0049206    0.0020322     0.9159075   -0.3934785     0.9158209   -0.3932633     0.0045907    0.0020894 
   0.015986875     0.0050907    0.0019885     0.9106653   -0.4051847     0.9105408   -0.4052512     0.0046590    0.0020820 
   0.016486250     0.0051225    0.0018751     0.9053165   -0.4171172     0.9050099   -0.4170406     0.0047633    0.0019773 
   0.016985625     0.0053198    0.0019169     0.8997321   -0.4288942     0.8994964   -0.4287701     0.0049082    0.0019642 
   0.017485000     0.0053782    0.0018616     0.8937010   -0.4404566     0.8937272   -0.4403468     0.0049031    0.0019483 
   0.017984375     0.0054469    0.0017717     0.8879134   -0.4520907     0.8879388   -0.4520114     0.0050210    0.0019277 
   0.018483750     0.0055084    0.0017556     0.8818234   -0.4636318     0.8818309   -0.4635907     0.0050632    0.0018730 
   0.018983125     0.0056707    0.0017576     0.8755955   -0.4751591     0.8756039   -0.4749313     0.0051364    0.0018258 
   0.019482500     0.0056887    0.0016935     0.8693841   -0.4864894     0.8691922   -0.4863275     0.0051923    0.0017646 
   0.019981875     0.0057310    0.0015236     0.8629461   -0.4977775     0.8626487   -0.4976178     0.0052931    0.0017965 
   0.020481250     0.0059253    0.0015954     0.8560761   -0.5090139     0.8561992   -0.5089161     0.0053991    0.0016921 
   0.020980625     0.0059942    0.0014636     0.8493714   -0.5200862     0.8493121   -0.5199172     0.0054327    0.0016176 
   0.021480000     0.0060138    0.0013897     0.8425554   -0.5311300     0.8424349   -0.5310701     0.0055706    0.0015835 
   0.021979375     0.0061066    0.0013014     0.8355223   -0.5420593     0.8352490   -0.5418351     0.0056032    0.0014932 
   0.022478750     0.0062365    0.0012198     0.8281363   -0.5529035     0.8280817   -0.5527712     0.0056435    0.0014539 
   0.022978125     0.0063007    0.0012088     0.8210383   -0.5637177     0.8209217   -0.5635337     0.0057207    0.0013975 
   0.023477500     0.0064286    0.0011710     0.8136447   -0.5743239     0.8134431   -0.5741332     0.0057228    0.0013363 
   0.023976875     0.0064684    0.0010641     0.8060404   -0.5848758     0.8058413   -0.5847220     0.0057776    0.0012348 
   0.024476250     0.0065266    0.0009601     0.7982179   -0.5952269     0.7981637   -0.5951418     0.0057816    0.0011690 
   0.024975625     0.0065894    0.0008457     0.7905084   -0.6055778     0.7903403   -0.6055020     0.0058353    0.0011229 
   0.025475000     0.0066915    0.0007200     0.7827486   -0.6158786     0.7825837   -0.6156027     0.0058933    0.0010128 
   0.025974375     0.0067402    0.0006220     0.7747039   -0.6259631     0.7745402   -0.6257243     0.0059432    0.0009552 
   0.026473750     0.0067104    0.0005526     0.7664971   -0.6357650     0.7663957   -0.6355978     0.0060000    0.0008405 
   0.026973125     0.0068433    0.0004333     0.7583836   -0.6457676     0.7579754   -0.6455780     0.0060485    0.0008007 
   0.027472500     0.0069269    0.0003242     0.7498814   -0.6553779     0.7496328   -0.6554182     0.0061386    0.0006853 
   0.027971875     0.0069943    0.0002532     0.7410711   -0.6651368     0.7409446   -0.6649826     0.0061195    0.0006085 
   0.028471250     0.0070627    0.0000932     0.7325414   -0.6746020     0.7322950   -0.6744906     0.0061582    0.0005463 
   0.028970625     0.0070983    0.0000178     0.7239116   -0.6840664     0.7233537   -0.6838108     0.0062776    0.0005376 
   0.029470000     0.0071594   -0.0001301     0.7148300   -0.6933686     0.7144558   -0.6930729     0.0063112    0.0004547 
   0.029969375     0.0071921   -0.0002309     0.7057373   -0.7024045     0.7054704   -0.7023879     0.0064055    0.0003679 
   0.030468750     0.0071957   -0.0003898     0.6965266   -0.7114982     0.6963300   -0.7112961     0.0063762    0.0003096 
   0.030968125     0.0071949   -0.0004969     0.6871995   -0.7203897     0.6870061   -0.7202859     0.0064147    0.0002336 
   0.031467500     0.0072051   -0.0006037     0.6778620   -0.7292910     0.6776075   -0.7290492     0.0064605    0.0001885 
   0.031966875     0.0072656   -0.0006844     0.6683360   -0.7377819     0.6680508   -0.7377393     0.0064496    0.0001415 
   0.032466250     0.0072890   -0.0008590     0.6585522   -0.7463866     0.6582918   -0.7462333     0.0065023    0.0000609 
   0.032965625     0.0073562   -0.0009200     0.6486828   -0.7549186     0.6485887   -0.7546446     0.0064982   -0.0000586 
   0.033465000     0.0073320   -0.0010287     0.6390550   -0.7632557     0.6386533   -0.7629404     0.0065386   -0.0001268 
   0.033964375     0.0073650   -0.0011145     0.6287774   -0.7713313     0.6284890   -0.7711650     0.0065954   -0.0002023 
   0.034463750     0.0074091   -0.0013162     0.6187723   -0.7794913     0.6186550   -0.7791346     0.0065402   -0.0003068 
   0.034963125     0.0073941   -0.0014984     0.6085471   -0.7873526     0.6082926   -0.7870430     0.0066401   -0.0003188 
   0.035462500     0.0073250   -0.0015241     0.5981423   -0.7951291     0.5978000   -0.7948024     0.0065379   -0.0005139 
   0.035961875     0.0074252   -0.0017191     0.5879053   -0.8027986     0.5875357   -0.8024865     0.0066236   -0.0005607 
   0.036461250     0.0074142   -0.0017741     0.5772027   -0.8103569     0.5769059   -0.8101547     0.0066669   -0.0007116 
   0.036960625     0.0072588   -0.0019755     0.5667012   -0.8176281     0.5663042   -0.8174455     0.0066699   -0.0007273 
   0.037460000     0.0073966   -0.0020867     0.5559001   -0.8248121     0.5556304   -0.8246989     0.0067240   -0.0008297 
   0.037959375     0.0073328   -0.0021749     0.5451385   -0.8320848     0.5448188   -0.8318633     0.0066300   -0.0009732 
   0.038458750     0.0073090   -0.0023193     0.5340865   -0.8389980     0.5337759   -0.8387249     0.0067228   -0.0009776 
   0.038958125     0.0072386   -0.0024074     0.5231180   -0.8458433     0.5227582   -0.8455667     0.0066878   -0.0010683 
   0.039457500     0.0073750   -0.0025820     0.5120497   -0.8525535     0.5116288   -0.8522581     0.0067180   -0.0011109 
   0.039956875     0.0072770   -0.0026292     0.5009401   -0.8591483     0.5005190   -0.8588459     0.0066364   -0.0013135 
   0.040456250     0.0073039   -0.0027125     0.4896994   -0.8654807     0.4892083   -0.8651848     0.0066196   -0.0013645 
   0.040955625     0.0072103   -0.0030206     0.4784276   -0.8717999     0.4779121   -0.8714421     0.0066320   -0.0014162 
   0.041455000     0.0072780   -0.0030451     0.4669533   -0.8778916     0.4665639   -0.8774958     0.0065443   -0.0013860 
   0.041954375     0.0071743   -0.0031646     0.4554572   -0.8837649     0.4550801   -0.8835176     0.0065530   -0.0015161 
   0.042453750     0.0070872   -0.0032990     0.4438343   -0.8896796     0.4434847   -0.8891976     0.0065175   -0.0015340 
   0.042953125     0.0070788   -0.0034540     0.4323365   -0.8952478     0.4318593   -0.8949059     0.0065086   -0.0016567 
   0.043452500     0.0070771   -0.0035389     0.4205331   -0.9008493     0.4203190   -0.9004443     0.0064385   -0.0017537 
   0.043951875     0.0071184   -0.0037799     0.4087775   -0.9061542     0.4085564   -0.9057761     0.0065002   -0.0018893 
   0.044451250     0.0070200   -0.0038915     0.3970279   -0.9112752     0.3966441   -0.9109528     0.0064273   -0.0018529 
   0.044950625     0.0069854   -0.0038839     0.3850917   -0.9163615     0.3848387   -0.9160088     0.0063682   -0.0020221 
   0.045450000     0.0069811   -0.0040367     0.3731544   -0.9212188     0.3728901   -0.9208689     0.0063588   -0.0019821 
   0.045949375     0.0067900   -0.0042235     0.3612319   -0.9259563     0.3608153   -0.9254506     0.0062823   -0.0021406 
   0.046448750     0.0068431   -0.0042260     0.3490630   -0.9304385     0.3488819   -0.9300427     0.0062682   -0.0021615 
   0.046948125     0.0067972   -0.0043355     0.3370230   -0.9347696     0.3366875   -0.9344080     0.0062755   -0.0021819 
   0.047447500     0.0066566   -0.0044057     0.3247264   -0.9392031     0.3244911   -0.9387422     0.0062129   -0.0023620 
   0.047946875     0.0065485   -0.0045331     0.3126102   -0.9433126     0.3122214   -0.9427947     0.0062980   -0.0023644 
   0.048446250     0.0064867   -0.0046500     0.3001560   -0.9471685     0.3000118   -0.9467080     0.0061924   -0.0023994 
   0.048945625     0.0064475   -0.0048067     0.2879665   -0.9509847     0.2876960   -0.9504970     0.0061828   -0.0025076 
   0.049445000     0.0064280   -0.0048193     0.2756799   -0.9546173     0.2753682   -0.9540395     0.0060988   -0.0025459 
   0.049944375     0.0063630   -0.0049558     0.2632667   -0.9581793     0.2628992   -0.9574980     0.0060379   -0.0026460 
   0.050443750     0.0063711   -0.0049855     0.2507150   -0.9613643     0.2503705   -0.9609805     0.0060790   -0.0027141 
   0.050943125     0.0063037   -0.0051001     0.2382201   -0.9643785     0.2378528   -0.9640144     0.0060646   -0.0027841 
   0.051442500     0.0062308   -0.0052010     0.2254843   -0.9672703     0.2253777   -0.9669418     0.0059111   -0.0029126 
   0.051941875     0.0061420   -0.0053976     0.2129532   -0.9702311     0.2128101   -0.9697235     0.0059195   -0.0029306 
   0.052441250     0.0060015   -0.0054032     0.2004865   -0.9729385     0.2002427   -0.9723108     0.0058780   -0.0030099 
   0.052940625     0.0059876   -0.0054440     0.1877818   -0.9754016     0.1876385   -0.9749169     0.0058375   -0.0030806 
   0.053440000     0.0058677   -0.0055133     0.1750993   -0.9775193     0.1748003   -0.9770139     0.0058629   -0.0031626 
   0.053939375     0.0056321   -0.0056308     0.1623398   -0.9797835     0.1620866   -0.9791668     0.0057624   -0.0031366 
   0.054438750     0.0056546   -0.0057931     0.1495016   -0.9817731     0.1493662   -0.9812470     0.0056329   -0.0032010 
   0.054938125     0.0055892   -0.0058338     0.1367368   -0.9834908     0.1365379   -0.9831129     0.0056528   -0.0032249 
   0.055437500     0.0055472   -0.0059038     0.1239311   -0.9852018     0.1236657   -0.9846489     0.0055527   -0.0032985 
   0.055936875     0.0054310   -0.0059180     0.1110170   -0.9866459     0.1109011   -0.9861696     0.0055781   -0.0033552 
   0.056436250     0.0053351   -0.0058941     0.0981889   -0.9880538     0.0979725   -0.9874282     0.0055105   -0.0033111 
   0.056935625     0.0051974   -0.0060685     0.0853852   -0.9889864     0.0851433   -0.9886405     0.0054204   -0.0033373 
   0.057435000     0.0050175   -0.0061702     0.0724944   -0.9899179     0.0724114   -0.9897044     0.0053493   -0.0034130 
   0.057934375     0.0049370   -0.0062835     0.0595682   -0.9907040     0.0593878   -0.9905070     0.0053245   -0.0034832 
   0.058433750     0.0048123   -0.0063622     0.0467505   -0.9913907     0.0464397   -0.9911548     0.0052268   -0.0034137 
   0.058933125     0.0047387   -0.0063192     0.0337696   -0.9920933     0.0336278   -0.9916654     0.0052275   -0.0035214 
   0.059432500     0.0046294   -0.0063925     0.0210118   -0.9924520     0.0207750   -0.9919432     0.0051871   -0.0034806 
   0.059931875     0.0045180   -0.0065247     0.0079225   -0.9925315     0.0078354   -0.9921687     0.0051030   -0.0035310 
   0.060431250     0.0044262   -0.0066444    -0.0049856   -0.9927207    -0.0051660   -0.9920714     0.0051261   -0.0035865 
   0.060930625     0.0042673   -0.0065709    -0.0179023   -0.9923815    -0.0180420   -0.9919348     0.0050068   -0.0035883 
   0.061430000     0.0042124   -0.0066500    -0.0308168   -0.9919879    -0.0309920   -0.9915404     0.0049528   -0.0035737 
   0.061929375     0.0041686   -0.0069064    -0.0435950   -0.9914431    -0.0438323   -0.9911326     0.0048872   -0.0035508 
   0.062428750     0.0039611   -0.0068875    -0.0566874   -0.9908358    -0.0566606   -0.9906093     0.0048624   -0.0036294 
   0.062928125     0.0038675   -0.0068242    -0.0694919   -0.9899921    -0.0695192   -0.9896994     0.0047798   -0.0036412 
   0.063427500     0.0037913   -0.0069704    -0.0823574   -0.9889858    -0.0824119   -0.9885892     0.0047554   -0.0036674 
   0.063926875     0.0035792   -0.0069230    -0.0950742   -0.9879869    -0.0952298   -0.9875308     0.0046748   -0.0036510 
   0.064426250     0.0035136   -0.0071215    -0.1080670   -0.9866037    -0.1079410   -0.9862202     0.0045858   -0.0037225 
   0.064925625     0.0033285   -0.0070045    -0.1208971   -0.9850454    -0.1208907   -0.9847048     0.0045355   -0.0036945 
   0.065425000     0.0031919   -0.0071777    -0.1335880   -0.9833099    -0.1336895   -0.9829617     0.0044963   -0.0036725 
   0.065924375     0.0030514   -0.0071648    -0.1464068   -0.9814743    -0.1464635   -0.9810606     0.0044067   -0.0036438 
   0.066423750     0.0030182   -0.0072999    -0.1591935   -0.9795274    -0.1590836   -0.9791374     0.0043726   -0.0036848 
   0.066923125     0.0028667   -0.0071988    -0.1718094   -0.9774612    -0.1718543   -0.9769925     0.0042104   -0.0036871 
   0.067422500     0.0027063   -0.0072785    -0.1843771   -0.9752664    -0.1845339   -0.9745837     0.0041770   -0.0036912 
   0.067921875     0.0025556   -0.0072882    -0.1971723   -0.9725070    -0.1971202   -0.9722738     0.0041692   -0.0036960 
   0.068421250     0.0024536   -0.0072471    -0.2097216   -0.9699524    -0.2096497   -0.9696615     0.0040985   -0.0036055 
   0.068920625     0.0023418   -0.0072503    -0.2224617   -0.9669449    -0.2222213   -0.9668452     0.0040194   -0.0036686 
   0.069420000     0.0023153   -0.0072465    -0.2349129   -0.9641894    -0.2347294   -0.9639006     0.0040231   -0.0036771 
   0.069919375     0.0020778   -0.0073201    -0.2474144   -0.9610505    -0.2473168   -0.9607100     0.0039475   -0.0036072 
   0.070418750     0.0020537   -0.0072567    -0.2598087   -0.9576443    -0.2595949   -0.9574904     0.0039577   -0.0036276 
   0.070918125     0.0017816   -0.0073346    -0.2722915   -0.9542656    -0.2721106   -0.9540584     0.0038582   -0.0036395 
   0.071417500     0.0015847   -0.0073281    -0.2846082   -0.9506500    -0.2843819   -0.9504493     0.0037455   -0.0036441 
   0.071916875     0.0015984   -0.0072636    -0.2968844   -0.9468136    -0.2967291   -0.9466662     0.0037055   -0.0036512 
   0.072416250     0.0015028   -0.0072446    -0.3091558   -0.9429414    -0.3090171   -0.9427583     0.0036851   -0.0037259 
   0.072915625     0.0014163   -0.0073266    -0.3215165   -0.9389021    -0.3213216   -0.9387175     0.0036163   -0.0035928 
   0.073415000     0.0013271   -0.0072076    -0.3335792   -0.9347097    -0.3333941   -0.9344733     0.0036432   -0.0036208 
   0.073914375     0.0011680   -0.0072358    -0.3456720   -0.9302389    -0.3454904   -0.9300214     0.0035971   -0.0035662 
   0.074413750     0.0010187   -0.0072964    -0.3577005   -0.9256814    -0.3576075   -0.9253935     0.0034487   -0.0036449 
   0.074913125     0.0009839   -0.0073682    -0.3697368   -0.9209827    -0.3695568   -0.9206764     0.0033951   -0.0035507 
   0.075412500     0.0008369   -0.0073024    -0.3815664   -0.9160647    -0.3814104   -0.9158297     0.0033838   -0.0036211 
   0.075911875     0.0006504   -0.0072386    -0.3935514   -0.9109813    -0.3933329   -0.9108716     0.0033845   -0.0035879 
   0.076411250     0.0005003   -0.0072339    -0.4052268   -0.9058588    -0.4051216   -0.9055291     0.0033577   -0.0035226 
   0.076910625     0.0004026   -0.0072151    -0.4169603   -0.9006382    -0.4168306   -0.9002221     0.0033005   -0.0035569 
   0.077410000     0.0003668   -0.0071294    -0.4287404   -0.8949857    -0.4285175   -0.8948519     0.0032781   -0.0035522 
   0.077909375     0.0002623   -0.0071514    -0.4402437   -0.8893034    -0.4401140   -0.8891655     0.0031778   -0.0033690 
   0.078408750     0.0002095   -0.0070701    -0.4517519   -0.8835492    -0.4517526   -0.8831582     0.0031804   -0.0033560 
   0.078908125     0.0001078   -0.0070497    -0.4632749   -0.8775160    -0.4631216   -0.8773323     0.0031234   -0.0033706 
   0.079407500     0.0000070   -0.0070530    -0.4746055   -0.8715972    -0.4743951   -0.8712170     0.0030993   -0.0033286 
   0.079906875    -0.0001377   -0.0070018    -0.4858255   -0.8653182    -0.4857217   -0.8650599     0.0030618   -0.0031935 
   0.080406250    -0.0002211   -0.0069259    -0.4970877   -0.8589172    -0.4968181   -0.8588694     0.0029816   -0.0032153 
   0.080905625    -0.0003873   -0.0069207    -0.5081217   -0.8523575    -0.5080596   -0.8522301     0.0029753   -0.0032184 
   0.081405000    -0.0004904   -0.0069435    -0.5192137   -0.8456498    -0.5188774   -0.8454391     0.0029537   -0.0031472 
   0.081904375    -0.0005930   -0.0069291    -0.5302387   -0.8388965    -0.5298345   -0.8387489     0.0029286   -0.0031685 
   0.082403750    -0.0007259   -0.0067565    -0.5409744   -0.8318891    -0.5406836   -0.8317266     0.0028787   -0.0030976 
   0.082903125    -0.0007747   -0.0068001    -0.5517213   -0.8248643    -0.5514503   -0.8245952     0.0027848   -0.0029547 
   0.083402500    -0.0009071   -0.0068085    -0.5624089   -0.8176129    -0.5621821   -0.8173339     0.0028122   -0.0029745 
   0.083901875    -0.0010269   -0.0067038    -0.5729204   -0.8101462    -0.5727798   -0.8099156     0.0028338   -0.0028699 
   0.084401250    -0.0011320   -0.0066908    -0.5833248   -0.8026199    -0.5832796   -0.8025211     0.0027070   -0.0029055 
